
T1F0C 000:367 SEGGER J-Link V5.12f Log File (0001ms, 0347ms total)
T1F0C 000:367 DLL Compiled: May 17 2016 16:03:35 (0001ms, 0347ms total)
T1F0C 000:367 Logging started @ 2018-07-07 12:42 (0001ms, 0347ms total)
T1F0C 000:368 JLINK_SetWarnOutHandler(...) (0000ms, 0347ms total)
T1F0C 000:368 JLINK_OpenEx(...)
Firmware: J-Link ARM-OB STM32 compiled Aug 22 2012 19:52:04
Hardware: V7.00
S/N: 20090928
Feature(s): RDI,FlashDL,FlashBP,JFlash,GDBFull  returns O.K. (0331ms, 0678ms total)
T1F0C 000:699 JLINK_SetErrorOutHandler(...) (0000ms, 0678ms total)
T1F0C 000:699 JLINK_ExecCommand("ProjectFile = "C:\Users\ThinkPad\Documents\LPC54114\P-TK-05-2FC-LPC54114\boards\lpcxpresso54114\multicore_examples\hello_world_Ë«´®¿ÚÊä³ö_UART0_UART5-2018-06-05\cm4\mdk\JLinkSettings.ini"", ...)  returns 0x00 (0001ms, 0679ms total)
T1F0C 000:706 JLINK_ExecCommand("Device = LPC54114J256BD64:M4", ...)Device "LPC54112J256_M4" selected.  returns 0x00 (0008ms, 0687ms total)
T1F0C 000:714 JLINK_ExecCommand("DisableConnectionTimeout", ...)  returns 0x01 (0000ms, 0687ms total)
T1F0C 000:714 JLINK_GetHardwareVersion()  returns 0x11170 (0000ms, 0687ms total)
T1F0C 000:714 JLINK_GetDLLVersion()  returns 51206 (0000ms, 0687ms total)
T1F0C 000:714 JLINK_GetFirmwareString(...) (0000ms, 0687ms total)
T1F0C 000:775 JLINK_GetDLLVersion()  returns 51206 (0000ms, 0687ms total)
T1F0C 000:775 JLINK_GetCompileDateTime() (0000ms, 0687ms total)
T1F0C 000:783 JLINK_GetFirmwareString(...) (0000ms, 0687ms total)
T1F0C 000:785 JLINK_GetHardwareVersion()  returns 0x11170 (0000ms, 0687ms total)
T1F0C 000:818 JLINK_TIF_Select(JLINKARM_TIF_SWD)  returns 0x00 (0022ms, 0709ms total)
T1F0C 000:840 JLINK_SetSpeed(2000) (0005ms, 0714ms total)
T1F0C 000:845 JLINK_GetId() >0x108 TIF>Found SWD-DP with ID 0x2BA01477 >0x0D TIF> >0x28 TIF> >0x0D TIF> >0x28 TIF> >0x0D TIF> >0x28 TIF> >0x0D TIF> >0x28 TIF> >0x0D TIF> >0x21 TIF> >0x0D TIF> >0x28 TIF> >0x0D TIF> >0x28 TIF> >0x0D TIF> >0x21 TIF> >0x0D TIF> >0x21 TIF> >0x0D TIF> >0x21 TIF> >0x0D TIF> >0x28 TIF> >0x0D TIF> >0x28 TIF> >0x0D TIF> >0x28 TIF> >0x0D TIF> >0x21 TIF> >0x0D TIF> >0x21 TIF> >0x0D TIF> >0x28 TIF> >0x0D TIF> >0x21 TIF> >0x0D TIF> >0x21 TIF>Found Cortex-M4 r0p1, Little endian.
 -- CPU_ReadMem(4 bytes @ 0xE000EDF0) -- CPU_WriteMem(4 bytes @ 0xE000EDF0) -- CPU_ReadMem(4 bytes @ 0xE0002000)FPUnit: 6 code (BP) slots and 2 literal slots -- CPU_ReadMem(4 bytes @ 0xE000EDFC) -- CPU_WriteMem(4 bytes @ 0xE000EDFC) -- CPU_ReadMem(4 bytes @ 0xE0001000) -- CPU_WriteMem(4 bytes @ 0xE0001000) -- CPU_ReadMem(4 bytes @ 0xE000ED88) -- CPU_WriteMem(4 bytes @ 0xE000ED88) -- CPU_ReadMem(4 bytes @ 0xE000ED88) -- CPU_WriteMem(4 bytes @ 0xE000ED88)CoreSight components:ROMTbl 0 @ E00FF000
 -- CPU_ReadMem(16 bytes @ 0xE00FF000) -- CPU_ReadMem(16 bytes @ 0xE000EFF0) -- CPU_ReadMem(16 bytes @ 0xE000EFE0)ROMTbl 0 [0]: FFF0F000, CID: B105E00D, PID: 000BB00C SCS -- CPU_ReadMem(16 bytes @ 0xE0001FF0) -- CPU_ReadMem(16 bytes @ 0xE0001FE0)ROMTbl 0 [1]: FFF02000, CID: B105E00D, PID: 003BB002 DWT -- CPU_ReadMem(16 bytes @ 0xE0002FF0) -- CPU_ReadMem(16 bytes @ 0xE0002FE0)ROMTbl 0 [2]: FFF03000, CID: B105E00D, PID: 002BB003 FPB -- CPU_ReadMem(16 bytes @ 0xE0000FF0)
 -- CPU_ReadMem(16 bytes @ 0xE0000FE0)ROMTbl 0 [3]: FFF01000, CID: B105E00D, PID: 003BB001 ITM -- CPU_ReadMem(16 bytes @ 0xE00FF010) -- CPU_ReadMem(16 bytes @ 0xE0040FF0) -- CPU_ReadMem(16 bytes @ 0xE0040FE0)ROMTbl 0 [4]: FFF41000, CID: B105900D, PID: 000BB9A1 TPIU >0x0D TIF> >0x21 TIF>  returns 0x2BA01477 (0532ms, 1246ms total)
T1F0C 001:378 JLINK_GetDeviceFamily()  returns 14 (0001ms, 1247ms total)
T1F0C 001:390 JLINK_ReadMem (0xE00FFFF0, 0x0010 Bytes, ...) -- CPU is running -- CPU_ReadMem(16 bytes @ 0xE00FFFF0) - Data: 0D 00 00 00 10 00 00 00 05 00 00 00 B1 00 00 00  returns 0x00 (0005ms, 1252ms total)
T1F0C 001:395 JLINK_ReadMem (0xE00FFFD0, 0x0020 Bytes, ...) -- CPU is running -- CPU_ReadMem(32 bytes @ 0xE00FFFD0) - Data: 04 00 00 00 00 00 00 00 00 00 00 00 00 00 00 00 ...  returns 0x00 (0011ms, 1263ms total)
T1F0C 001:406 JLINK_ReadMem (0xE00FF000, 0x0018 Bytes, ...) -- CPU is running -- CPU_ReadMem(24 bytes @ 0xE00FF000) - Data: 03 F0 F0 FF 03 20 F0 FF 03 30 F0 FF 03 10 F0 FF ...  returns 0x00 (0012ms, 1275ms total)
T1F0C 001:418 JLINK_ReadMemU32(0xE000ED00, 0x0001 Items, ...) -- CPU is running -- CPU_ReadMem(4 bytes @ 0xE000ED00) - Data: 41 C2 0F 41  returns 0x01 (0007ms, 1282ms total)
T1F0C 001:425 JLINK_ReadMemU32(0xE000EF40, 0x0001 Items, ...) -- CPU is running -- CPU_ReadMem(4 bytes @ 0xE000EF40) - Data: 21 00 11 10  returns 0x01 (0007ms, 1289ms total)
T1F0C 001:432 JLINK_ReadMemU32(0xE000EF44, 0x0001 Items, ...) -- CPU is running -- CPU_ReadMem(4 bytes @ 0xE000EF44) - Data: 11 00 00 11  returns 0x01 (0006ms, 1295ms total)
T1F0C 001:438 JLINK_SetResetType(JLINKARM_RESET_TYPE_NORMAL)  returns JLINKARM_RESET_TYPE_HALT_WP (0000ms, 1295ms total)
T1F0C 001:438 JLINK_Reset() -- CPU is running -- CPU_WriteMem(4 bytes @ 0xE000EDF0) -- CPU is running -- CPU_WriteMem(4 bytes @ 0xE000EDFC) >0x35 TIF> -- CPU is running -- CPU_WriteMem(4 bytes @ 0xE000ED0C) -- CPU is running -- CPU_ReadMem(4 bytes @ 0xE000EDF0) -- CPU is running -- CPU_ReadMem(4 bytes @ 0xE000EDF0) -- CPU is running -- CPU_WriteMem(4 bytes @ 0xE000EDF0) -- CPU is running -- CPU_WriteMem(4 bytes @ 0xE000EDFC) -- CPU is running -- CPU_ReadMem(4 bytes @ 0xE000EDF0)
 -- CPU_WriteMem(4 bytes @ 0xE000EDFC) -- CPU_WriteMem(4 bytes @ 0xE000EDFC) -- CPU_WriteMem(4 bytes @ 0xE000EDFC) -- CPU_WriteMem(4 bytes @ 0xE000EDFC) -- CPU_WriteMem(4 bytes @ 0xE000EDFC) -- CPU_WriteMem(4 bytes @ 0xE0001050) -- CPU_WriteMem(4 bytes @ 0xE0001054) -- CPU_WriteMem(4 bytes @ 0xE0001058) -- CPU_ReadMem(4 bytes @ 0xE0001000) -- CPU_WriteMem(4 bytes @ 0xE000EDFC) -- CPU_WriteMem(4 bytes @ 0xE0001058) -- CPU_ReadMem(4 bytes @ 0x00000004) -- CPU_ReadMem(4 bytes @ 0xE0002000)
 -- CPU_ReadMem(4 bytes @ 0xE0002008) -- CPU_ReadMem(4 bytes @ 0xE000200C) -- CPU_ReadMem(4 bytes @ 0xE0002010) -- CPU_ReadMem(4 bytes @ 0xE0002014) -- CPU_ReadMem(4 bytes @ 0xE0002018) -- CPU_ReadMem(4 bytes @ 0xE000201C) -- CPU_WriteMem(4 bytes @ 0xE0002000) -- CPU_WriteMem(4 bytes @ 0xE0002008) -- CPU_WriteMem(4 bytes @ 0xE000200C) -- CPU_WriteMem(4 bytes @ 0xE0002010) -- CPU_WriteMem(4 bytes @ 0xE0002014) -- CPU_WriteMem(4 bytes @ 0xE0002018) -- CPU_WriteMem(4 bytes @ 0xE000201C)
 -- CPU_ReadMem(4 bytes @ 0xE0001000) -- CPU_ReadMem(4 bytes @ 0x40000000) -- CPU_WriteMem(4 bytes @ 0xE0002000) -- CPU_WriteMem(4 bytes @ 0xE0002008) -- CPU_WriteMem(4 bytes @ 0xE000200C) -- CPU_WriteMem(4 bytes @ 0xE0002010) -- CPU_WriteMem(4 bytes @ 0xE0002014) -- CPU_WriteMem(4 bytes @ 0xE0002018) -- CPU_WriteMem(4 bytes @ 0xE000201C) -- CPU_WriteMem(4 bytes @ 0xE0002000) -- CPU_ReadMem(4 bytes @ 0xE000EDFC) -- CPU_ReadMem(4 bytes @ 0xE0001000) (0603ms, 1898ms total)
T1F0C 002:041 JLINK_Halt()  returns 0x00 (0000ms, 1898ms total)
T1F0C 002:046 JLINK_IsHalted()  returns TRUE (0000ms, 1898ms total)
T1F0C 002:046 JLINK_ReadMemU32(0xE000EDF0, 0x0001 Items, ...) -- CPU_ReadMem(4 bytes @ 0xE000EDF0) - Data: 03 00 03 00  returns 0x01 (0008ms, 1906ms total)
T1F0C 002:054 JLINK_WriteU32(0xE000EDF0, 0xA05F0003) -- CPU_WriteMem(4 bytes @ 0xE000EDF0)  returns 0x00 (0007ms, 1913ms total)
T1F0C 002:061 JLINK_WriteU32(0xE000EDFC, 0x01000000) -- CPU_WriteMem(4 bytes @ 0xE000EDFC)  returns 0x00 (0009ms, 1922ms total)
T1F0C 002:103 JLINK_GetHWStatus(...)  returns 0x00 (0007ms, 1929ms total)
T1F0C 002:138 JLINK_GetNumBPUnits(Type = 0xFFFFFF00)  returns 0x06 (0000ms, 1929ms total)
T1F0C 002:138 JLINK_GetNumBPUnits(Type = 0xF0)  returns 0x2000 (0000ms, 1929ms total)
T1F0C 002:138 JLINK_GetNumWPUnits()  returns 0x04 (0000ms, 1929ms total)
T1F0C 002:186 JLINK_GetSpeed()  returns 0x7D0 (0000ms, 1929ms total)
T1F0C 002:211 JLINK_ReadMemU32(0xE000E004, 0x0001 Items, ...) -- CPU_ReadMem(4 bytes @ 0xE000E004) - Data: 01 00 00 00  returns 0x01 (0006ms, 1935ms total)
T1F0C 002:217 JLINK_ReadMemU32(0xE000E004, 0x0001 Items, ...) -- CPU_ReadMem(4 bytes @ 0xE000E004) - Data: 01 00 00 00  returns 0x01 (0005ms, 1940ms total)
T1F0C 002:222 JLINK_WriteMem(0xE0001000, 0x001C Bytes, ...) - Data: 01 00 00 00 00 00 00 00 00 00 00 00 00 00 00 00 ... -- CPU_WriteMem(28 bytes @ 0xE0001000)  returns 0x1C (0009ms, 1949ms total)
T1F0C 002:232 JLINK_ReadMem (0xE0001000, 0x001C Bytes, ...) -- CPU_ReadMem(28 bytes @ 0xE0001000) - Data: 01 00 00 40 00 00 00 00 00 00 00 00 00 00 00 00 ...  returns 0x00 (0007ms, 1956ms total)
T1F0C 002:239 JLINK_Halt()  returns 0x00 (0000ms, 1956ms total)
T1F0C 002:239 JLINK_IsHalted() -- CPU_ReadMem(4 bytes @ 0x40000000)  returns TRUE (0006ms, 1962ms total)
T1F0C 002:248 JLINK_WriteMem(0x20000000, 0x0178 Bytes, ...) - Data: 00 BE 0A E0 0D 78 2D 06 68 40 08 24 40 00 00 D3 ... -- CPU_WriteMem(376 bytes @ 0x20000000)  returns 0x178 (0011ms, 1967ms total)
T1F0C 002:259 JLINK_WriteReg(R0, 0x00000000)  returns 0x00 (0000ms, 1967ms total)
T1F0C 002:259 JLINK_WriteReg(R1, 0x01F78A40)  returns 0x00 (0000ms, 1967ms total)
T1F0C 002:259 JLINK_WriteReg(R2, 0x00000001)  returns 0x00 (0000ms, 1967ms total)
T1F0C 002:259 JLINK_WriteReg(R3, 0x00000000)  returns 0x00 (0000ms, 1967ms total)
T1F0C 002:259 JLINK_WriteReg(R4, 0x00000000)  returns 0x00 (0000ms, 1967ms total)
T1F0C 002:259 JLINK_WriteReg(R5, 0x00000000)  returns 0x00 (0000ms, 1967ms total)
T1F0C 002:259 JLINK_WriteReg(R6, 0x00000000)  returns 0x00 (0000ms, 1967ms total)
T1F0C 002:259 JLINK_WriteReg(R7, 0x00000000)  returns 0x00 (0000ms, 1967ms total)
T1F0C 002:259 JLINK_WriteReg(R8, 0x00000000)  returns 0x00 (0000ms, 1967ms total)
T1F0C 002:259 JLINK_WriteReg(R9, 0x20000170)  returns 0x00 (0000ms, 1967ms total)
T1F0C 002:259 JLINK_WriteReg(R10, 0x00000000)  returns 0x00 (0000ms, 1967ms total)
T1F0C 002:259 JLINK_WriteReg(R11, 0x00000000)  returns 0x00 (0000ms, 1967ms total)
T1F0C 002:259 JLINK_WriteReg(R12, 0x00000000)  returns 0x00 (0000ms, 1967ms total)
T1F0C 002:259 JLINK_WriteReg(R13 (SP), 0x20001000)  returns 0x00 (0000ms, 1967ms total)
T1F0C 002:259 JLINK_WriteReg(R14, 0x20000001)  returns 0x00 (0000ms, 1967ms total)
T1F0C 002:259 JLINK_WriteReg(R15 (PC), 0x2000003C)  returns 0x00 (0000ms, 1967ms total)
T1F0C 002:259 JLINK_WriteReg(XPSR, 0x01000000)  returns 0x00 (0000ms, 1967ms total)
T1F0C 002:259 JLINK_WriteReg(MSP, 0x20001000)  returns 0x00 (0000ms, 1967ms total)
T1F0C 002:259 JLINK_WriteReg(PSP, 0x20001000)  returns 0x00 (0000ms, 1967ms total)
T1F0C 002:259 JLINK_WriteReg(CFBP, 0x00000000)  returns 0x00 (0000ms, 1967ms total)
T1F0C 002:259 JLINK_SetBPEx(Addr = 0x20000000, Type = 0xFFFFFFF2) -- CPU_ReadMem(2 bytes @ 0x20000000)  returns 0x00000001 (0007ms, 1974ms total)
T1F0C 002:266 JLINK_Go() -- CPU_WriteMem(2 bytes @ 0x20000000) -- CPU_ReadMem(4 bytes @ 0xE0001000) -- CPU_WriteMem(4 bytes @ 0xE0002008) -- CPU_WriteMem(4 bytes @ 0xE000200C) -- CPU_WriteMem(4 bytes @ 0xE0002010) -- CPU_WriteMem(4 bytes @ 0xE0002014) -- CPU_WriteMem(4 bytes @ 0xE0002018) -- CPU_WriteMem(4 bytes @ 0xE000201C) -- CPU_WriteMem(4 bytes @ 0xE0001004) (0051ms, 2025ms total)
T1F0C 002:317 JLINK_IsHalted() -- CPU_ReadMem(2 bytes @ 0x20000000)  returns TRUE (0018ms, 2043ms total)
T1F0C 002:335 JLINK_ReadReg(R15 (PC))  returns 0x20000000 (0000ms, 2025ms total)
T1F0C 002:335 JLINK_ClrBPEx(BPHandle = 0x00000001)  returns 0x00 (0000ms, 2025ms total)
T1F0C 002:335 JLINK_ReadReg(R0)  returns 0x00000000 (0000ms, 2025ms total)
T1F0C 002:336 JLINK_WriteReg(R0, 0x00000000)  returns 0x00 (0000ms, 2025ms total)
T1F0C 002:336 JLINK_WriteReg(R1, 0x00008000)  returns 0x00 (0000ms, 2025ms total)
T1F0C 002:336 JLINK_WriteReg(R2, 0x000000FF)  returns 0x00 (0000ms, 2025ms total)
T1F0C 002:336 JLINK_WriteReg(R3, 0x00000000)  returns 0x00 (0000ms, 2025ms total)
T1F0C 002:336 JLINK_WriteReg(R4, 0x00000000)  returns 0x00 (0000ms, 2025ms total)
T1F0C 002:336 JLINK_WriteReg(R5, 0x00000000)  returns 0x00 (0000ms, 2025ms total)
T1F0C 002:336 JLINK_WriteReg(R6, 0x00000000)  returns 0x00 (0000ms, 2025ms total)
T1F0C 002:336 JLINK_WriteReg(R7, 0x00000000)  returns 0x00 (0000ms, 2025ms total)
T1F0C 002:336 JLINK_WriteReg(R8, 0x00000000)  returns 0x00 (0000ms, 2025ms total)
T1F0C 002:336 JLINK_WriteReg(R9, 0x20000170)  returns 0x00 (0000ms, 2025ms total)
T1F0C 002:336 JLINK_WriteReg(R10, 0x00000000)  returns 0x00 (0000ms, 2025ms total)
T1F0C 002:336 JLINK_WriteReg(R11, 0x00000000)  returns 0x00 (0000ms, 2025ms total)
T1F0C 002:336 JLINK_WriteReg(R12, 0x00000000)  returns 0x00 (0000ms, 2025ms total)
T1F0C 002:336 JLINK_WriteReg(R13 (SP), 0x20001000)  returns 0x00 (0000ms, 2025ms total)
T1F0C 002:336 JLINK_WriteReg(R14, 0x20000001)  returns 0x00 (0000ms, 2025ms total)
T1F0C 002:336 JLINK_WriteReg(R15 (PC), 0x20000020)  returns 0x00 (0000ms, 2025ms total)
T1F0C 002:336 JLINK_WriteReg(XPSR, 0x01000000)  returns 0x00 (0000ms, 2025ms total)
T1F0C 002:336 JLINK_WriteReg(MSP, 0x20001000)  returns 0x00 (0000ms, 2025ms total)
T1F0C 002:336 JLINK_WriteReg(PSP, 0x20001000)  returns 0x00 (0000ms, 2025ms total)
T1F0C 002:336 JLINK_WriteReg(CFBP, 0x00000000)  returns 0x00 (0000ms, 2025ms total)
T1F0C 002:336 JLINK_SetBPEx(Addr = 0x20000000, Type = 0xFFFFFFF2)  returns 0x00000002 (0000ms, 2025ms total)
T1F0C 002:336 JLINK_Go() -- CPU_ReadMem(4 bytes @ 0xE0001000) (0017ms, 2042ms total)
T1F0C 002:353 JLINK_IsHalted() -- CPU_ReadMem(2 bytes @ 0x20000000)  returns TRUE (0022ms, 2064ms total)
T1F0C 002:375 JLINK_ReadReg(R15 (PC))  returns 0x20000000 (0000ms, 2042ms total)
T1F0C 002:375 JLINK_ClrBPEx(BPHandle = 0x00000002)  returns 0x00 (0000ms, 2042ms total)
T1F0C 002:375 JLINK_ReadReg(R0)  returns 0x00000001 (0000ms, 2042ms total)
T1F0C 002:375 JLINK_WriteReg(R0, 0x00000000)  returns 0x00 (0001ms, 2043ms total)
T1F0C 002:376 JLINK_WriteReg(R1, 0x00008000)  returns 0x00 (0000ms, 2043ms total)
T1F0C 002:376 JLINK_WriteReg(R2, 0x000000FF)  returns 0x00 (0000ms, 2043ms total)
T1F0C 002:376 JLINK_WriteReg(R3, 0x00000000)  returns 0x00 (0000ms, 2043ms total)
T1F0C 002:376 JLINK_WriteReg(R4, 0x00000000)  returns 0x00 (0000ms, 2043ms total)
T1F0C 002:376 JLINK_WriteReg(R5, 0x00000000)  returns 0x00 (0000ms, 2043ms total)
T1F0C 002:376 JLINK_WriteReg(R6, 0x00000000)  returns 0x00 (0000ms, 2043ms total)
T1F0C 002:376 JLINK_WriteReg(R7, 0x00000000)  returns 0x00 (0000ms, 2043ms total)
T1F0C 002:376 JLINK_WriteReg(R8, 0x00000000)  returns 0x00 (0000ms, 2043ms total)
T1F0C 002:376 JLINK_WriteReg(R9, 0x20000170)  returns 0x00 (0000ms, 2043ms total)
T1F0C 002:376 JLINK_WriteReg(R10, 0x00000000)  returns 0x00 (0000ms, 2043ms total)
T1F0C 002:376 JLINK_WriteReg(R11, 0x00000000)  returns 0x00 (0000ms, 2043ms total)
T1F0C 002:376 JLINK_WriteReg(R12, 0x00000000)  returns 0x00 (0000ms, 2043ms total)
T1F0C 002:376 JLINK_WriteReg(R13 (SP), 0x20001000)  returns 0x00 (0000ms, 2043ms total)
T1F0C 002:376 JLINK_WriteReg(R14, 0x20000001)  returns 0x00 (0000ms, 2043ms total)
T1F0C 002:376 JLINK_WriteReg(R15 (PC), 0x200000A2)  returns 0x00 (0000ms, 2043ms total)
T1F0C 002:376 JLINK_WriteReg(XPSR, 0x01000000)  returns 0x00 (0000ms, 2043ms total)
T1F0C 002:376 JLINK_WriteReg(MSP, 0x20001000)  returns 0x00 (0000ms, 2043ms total)
T1F0C 002:376 JLINK_WriteReg(PSP, 0x20001000)  returns 0x00 (0000ms, 2043ms total)
T1F0C 002:376 JLINK_WriteReg(CFBP, 0x00000000)  returns 0x00 (0000ms, 2043ms total)
T1F0C 002:376 JLINK_SetBPEx(Addr = 0x20000000, Type = 0xFFFFFFF2)  returns 0x00000003 (0000ms, 2043ms total)
T1F0C 002:376 JLINK_Go() -- CPU_ReadMem(4 bytes @ 0xE0001000) (0019ms, 2062ms total)
T1F0C 002:395 JLINK_IsHalted()  returns FALSE (0005ms, 2067ms total)
T1F0C 002:513 JLINK_IsHalted() -- CPU_ReadMem(2 bytes @ 0x20000000)  returns TRUE (0023ms, 2085ms total)
T1F0C 002:537 JLINK_ReadReg(R15 (PC))  returns 0x20000000 (0000ms, 2062ms total)
T1F0C 002:537 JLINK_ClrBPEx(BPHandle = 0x00000003)  returns 0x00 (0000ms, 2062ms total)
T1F0C 002:537 JLINK_ReadReg(R0)  returns 0x00000000 (0000ms, 2062ms total)
T1F0C 002:537 JLINK_WriteReg(R0, 0x00008000)  returns 0x00 (0000ms, 2062ms total)
T1F0C 002:537 JLINK_WriteReg(R1, 0x00008000)  returns 0x00 (0000ms, 2062ms total)
T1F0C 002:537 JLINK_WriteReg(R2, 0x000000FF)  returns 0x00 (0000ms, 2062ms total)
T1F0C 002:537 JLINK_WriteReg(R3, 0x00000000)  returns 0x00 (0000ms, 2062ms total)
T1F0C 002:537 JLINK_WriteReg(R4, 0x00000000)  returns 0x00 (0000ms, 2062ms total)
T1F0C 002:537 JLINK_WriteReg(R5, 0x00000000)  returns 0x00 (0000ms, 2062ms total)
T1F0C 002:537 JLINK_WriteReg(R6, 0x00000000)  returns 0x00 (0000ms, 2062ms total)
T1F0C 002:537 JLINK_WriteReg(R7, 0x00000000)  returns 0x00 (0000ms, 2062ms total)
T1F0C 002:537 JLINK_WriteReg(R8, 0x00000000)  returns 0x00 (0000ms, 2062ms total)
T1F0C 002:537 JLINK_WriteReg(R9, 0x20000170)  returns 0x00 (0000ms, 2062ms total)
T1F0C 002:537 JLINK_WriteReg(R10, 0x00000000)  returns 0x00 (0000ms, 2062ms total)
T1F0C 002:537 JLINK_WriteReg(R11, 0x00000000)  returns 0x00 (0000ms, 2062ms total)
T1F0C 002:537 JLINK_WriteReg(R12, 0x00000000)  returns 0x00 (0000ms, 2062ms total)
T1F0C 002:537 JLINK_WriteReg(R13 (SP), 0x20001000)  returns 0x00 (0000ms, 2062ms total)
T1F0C 002:537 JLINK_WriteReg(R14, 0x20000001)  returns 0x00 (0000ms, 2062ms total)
T1F0C 002:537 JLINK_WriteReg(R15 (PC), 0x20000020)  returns 0x00 (0000ms, 2062ms total)
T1F0C 002:537 JLINK_WriteReg(XPSR, 0x01000000)  returns 0x00 (0000ms, 2062ms total)
T1F0C 002:537 JLINK_WriteReg(MSP, 0x20001000)  returns 0x00 (0000ms, 2062ms total)
T1F0C 002:537 JLINK_WriteReg(PSP, 0x20001000)  returns 0x00 (0000ms, 2062ms total)
T1F0C 002:537 JLINK_WriteReg(CFBP, 0x00000000)  returns 0x00 (0000ms, 2062ms total)
T1F0C 002:537 JLINK_SetBPEx(Addr = 0x20000000, Type = 0xFFFFFFF2)  returns 0x00000004 (0000ms, 2062ms total)
T1F0C 002:537 JLINK_Go() -- CPU_ReadMem(4 bytes @ 0xE0001000) (0017ms, 2079ms total)
T1F0C 002:554 JLINK_IsHalted() -- CPU_ReadMem(2 bytes @ 0x20000000)  returns TRUE (0018ms, 2097ms total)
T1F0C 002:573 JLINK_ReadReg(R15 (PC))  returns 0x20000000 (0000ms, 2079ms total)
T1F0C 002:573 JLINK_ClrBPEx(BPHandle = 0x00000004)  returns 0x00 (0000ms, 2079ms total)
T1F0C 002:573 JLINK_ReadReg(R0)  returns 0x00000001 (0000ms, 2079ms total)
T1F0C 002:573 JLINK_WriteReg(R0, 0x00008000)  returns 0x00 (0000ms, 2079ms total)
T1F0C 002:573 JLINK_WriteReg(R1, 0x00008000)  returns 0x00 (0000ms, 2079ms total)
T1F0C 002:573 JLINK_WriteReg(R2, 0x000000FF)  returns 0x00 (0000ms, 2079ms total)
T1F0C 002:573 JLINK_WriteReg(R3, 0x00000000)  returns 0x00 (0000ms, 2079ms total)
T1F0C 002:573 JLINK_WriteReg(R4, 0x00000000)  returns 0x00 (0000ms, 2079ms total)
T1F0C 002:573 JLINK_WriteReg(R5, 0x00000000)  returns 0x00 (0000ms, 2079ms total)
T1F0C 002:573 JLINK_WriteReg(R6, 0x00000000)  returns 0x00 (0000ms, 2079ms total)
T1F0C 002:573 JLINK_WriteReg(R7, 0x00000000)  returns 0x00 (0000ms, 2079ms total)
T1F0C 002:573 JLINK_WriteReg(R8, 0x00000000)  returns 0x00 (0000ms, 2079ms total)
T1F0C 002:573 JLINK_WriteReg(R9, 0x20000170)  returns 0x00 (0000ms, 2079ms total)
T1F0C 002:573 JLINK_WriteReg(R10, 0x00000000)  returns 0x00 (0000ms, 2079ms total)
T1F0C 002:573 JLINK_WriteReg(R11, 0x00000000)  returns 0x00 (0000ms, 2079ms total)
T1F0C 002:573 JLINK_WriteReg(R12, 0x00000000)  returns 0x00 (0000ms, 2079ms total)
T1F0C 002:573 JLINK_WriteReg(R13 (SP), 0x20001000)  returns 0x00 (0000ms, 2079ms total)
T1F0C 002:573 JLINK_WriteReg(R14, 0x20000001)  returns 0x00 (0000ms, 2079ms total)
T1F0C 002:573 JLINK_WriteReg(R15 (PC), 0x200000A2)  returns 0x00 (0000ms, 2079ms total)
T1F0C 002:573 JLINK_WriteReg(XPSR, 0x01000000)  returns 0x00 (0000ms, 2079ms total)
T1F0C 002:573 JLINK_WriteReg(MSP, 0x20001000)  returns 0x00 (0000ms, 2079ms total)
T1F0C 002:573 JLINK_WriteReg(PSP, 0x20001000)  returns 0x00 (0000ms, 2079ms total)
T1F0C 002:573 JLINK_WriteReg(CFBP, 0x00000000)  returns 0x00 (0000ms, 2079ms total)
T1F0C 002:573 JLINK_SetBPEx(Addr = 0x20000000, Type = 0xFFFFFFF2)  returns 0x00000005 (0000ms, 2079ms total)
T1F0C 002:573 JLINK_Go() -- CPU_ReadMem(4 bytes @ 0xE0001000) (0023ms, 2102ms total)
T1F0C 002:596 JLINK_IsHalted()  returns FALSE (0007ms, 2109ms total)
T1F0C 002:624 JLINK_IsHalted()  returns FALSE (0005ms, 2107ms total)
T1F0C 002:630 JLINK_IsHalted()  returns FALSE (0006ms, 2108ms total)
T1F0C 002:637 JLINK_IsHalted()  returns FALSE (0008ms, 2110ms total)
T1F0C 002:646 JLINK_IsHalted()  returns FALSE (0006ms, 2108ms total)
T1F0C 002:653 JLINK_IsHalted()  returns FALSE (0006ms, 2108ms total)
T1F0C 002:664 JLINK_IsHalted()  returns FALSE (0006ms, 2108ms total)
T1F0C 002:671 JLINK_IsHalted()  returns FALSE (0006ms, 2108ms total)
T1F0C 002:678 JLINK_IsHalted()  returns FALSE (0006ms, 2108ms total)
T1F0C 002:685 JLINK_IsHalted()  returns FALSE (0006ms, 2108ms total)
T1F0C 002:693 JLINK_IsHalted() -- CPU_ReadMem(2 bytes @ 0x20000000)  returns TRUE (0023ms, 2125ms total)
T1F0C 002:716 JLINK_ReadReg(R15 (PC))  returns 0x20000000 (0000ms, 2102ms total)
T1F0C 002:716 JLINK_ClrBPEx(BPHandle = 0x00000005)  returns 0x00 (0000ms, 2102ms total)
T1F0C 002:716 JLINK_ReadReg(R0)  returns 0x00000000 (0000ms, 2102ms total)
T1F0C 002:717 JLINK_WriteReg(R0, 0x00030000)  returns 0x00 (0000ms, 2102ms total)
T1F0C 002:717 JLINK_WriteReg(R1, 0x00008000)  returns 0x00 (0000ms, 2102ms total)
T1F0C 002:717 JLINK_WriteReg(R2, 0x000000FF)  returns 0x00 (0000ms, 2102ms total)
T1F0C 002:717 JLINK_WriteReg(R3, 0x00000000)  returns 0x00 (0000ms, 2102ms total)
T1F0C 002:717 JLINK_WriteReg(R4, 0x00000000)  returns 0x00 (0000ms, 2102ms total)
T1F0C 002:717 JLINK_WriteReg(R5, 0x00000000)  returns 0x00 (0000ms, 2102ms total)
T1F0C 002:717 JLINK_WriteReg(R6, 0x00000000)  returns 0x00 (0000ms, 2102ms total)
T1F0C 002:717 JLINK_WriteReg(R7, 0x00000000)  returns 0x00 (0000ms, 2102ms total)
T1F0C 002:717 JLINK_WriteReg(R8, 0x00000000)  returns 0x00 (0000ms, 2102ms total)
T1F0C 002:717 JLINK_WriteReg(R9, 0x20000170)  returns 0x00 (0000ms, 2102ms total)
T1F0C 002:717 JLINK_WriteReg(R10, 0x00000000)  returns 0x00 (0000ms, 2102ms total)
T1F0C 002:718 JLINK_WriteReg(R11, 0x00000000)  returns 0x00 (0000ms, 2103ms total)
T1F0C 002:718 JLINK_WriteReg(R12, 0x00000000)  returns 0x00 (0000ms, 2103ms total)
T1F0C 002:718 JLINK_WriteReg(R13 (SP), 0x20001000)  returns 0x00 (0000ms, 2103ms total)
T1F0C 002:718 JLINK_WriteReg(R14, 0x20000001)  returns 0x00 (0000ms, 2103ms total)
T1F0C 002:718 JLINK_WriteReg(R15 (PC), 0x20000020)  returns 0x00 (0000ms, 2103ms total)
T1F0C 002:718 JLINK_WriteReg(XPSR, 0x01000000)  returns 0x00 (0000ms, 2103ms total)
T1F0C 002:718 JLINK_WriteReg(MSP, 0x20001000)  returns 0x00 (0000ms, 2103ms total)
T1F0C 002:718 JLINK_WriteReg(PSP, 0x20001000)  returns 0x00 (0000ms, 2103ms total)
T1F0C 002:718 JLINK_WriteReg(CFBP, 0x00000000)  returns 0x00 (0000ms, 2103ms total)
T1F0C 002:718 JLINK_SetBPEx(Addr = 0x20000000, Type = 0xFFFFFFF2)  returns 0x00000006 (0000ms, 2103ms total)
T1F0C 002:718 JLINK_Go() -- CPU_ReadMem(4 bytes @ 0xE0001000) (0016ms, 2119ms total)
T1F0C 002:734 JLINK_IsHalted() -- CPU_ReadMem(2 bytes @ 0x20000000)  returns TRUE (0020ms, 2139ms total)
T1F0C 002:754 JLINK_ReadReg(R15 (PC))  returns 0x20000000 (0000ms, 2119ms total)
T1F0C 002:754 JLINK_ClrBPEx(BPHandle = 0x00000006)  returns 0x00 (0000ms, 2119ms total)
T1F0C 002:754 JLINK_ReadReg(R0)  returns 0x00000001 (0000ms, 2119ms total)
T1F0C 002:754 JLINK_WriteReg(R0, 0x00030000)  returns 0x00 (0000ms, 2119ms total)
T1F0C 002:754 JLINK_WriteReg(R1, 0x00008000)  returns 0x00 (0000ms, 2119ms total)
T1F0C 002:754 JLINK_WriteReg(R2, 0x000000FF)  returns 0x00 (0001ms, 2120ms total)
T1F0C 002:755 JLINK_WriteReg(R3, 0x00000000)  returns 0x00 (0000ms, 2120ms total)
T1F0C 002:755 JLINK_WriteReg(R4, 0x00000000)  returns 0x00 (0000ms, 2120ms total)
T1F0C 002:755 JLINK_WriteReg(R5, 0x00000000)  returns 0x00 (0000ms, 2120ms total)
T1F0C 002:755 JLINK_WriteReg(R6, 0x00000000)  returns 0x00 (0000ms, 2120ms total)
T1F0C 002:755 JLINK_WriteReg(R7, 0x00000000)  returns 0x00 (0000ms, 2120ms total)
T1F0C 002:755 JLINK_WriteReg(R8, 0x00000000)  returns 0x00 (0000ms, 2120ms total)
T1F0C 002:755 JLINK_WriteReg(R9, 0x20000170)  returns 0x00 (0000ms, 2120ms total)
T1F0C 002:755 JLINK_WriteReg(R10, 0x00000000)  returns 0x00 (0000ms, 2120ms total)
T1F0C 002:755 JLINK_WriteReg(R11, 0x00000000)  returns 0x00 (0000ms, 2120ms total)
T1F0C 002:755 JLINK_WriteReg(R12, 0x00000000)  returns 0x00 (0000ms, 2120ms total)
T1F0C 002:755 JLINK_WriteReg(R13 (SP), 0x20001000)  returns 0x00 (0000ms, 2120ms total)
T1F0C 002:755 JLINK_WriteReg(R14, 0x20000001)  returns 0x00 (0000ms, 2120ms total)
T1F0C 002:755 JLINK_WriteReg(R15 (PC), 0x200000A2)  returns 0x00 (0000ms, 2120ms total)
T1F0C 002:755 JLINK_WriteReg(XPSR, 0x01000000)  returns 0x00 (0000ms, 2120ms total)
T1F0C 002:755 JLINK_WriteReg(MSP, 0x20001000)  returns 0x00 (0000ms, 2120ms total)
T1F0C 002:755 JLINK_WriteReg(PSP, 0x20001000)  returns 0x00 (0000ms, 2120ms total)
T1F0C 002:755 JLINK_WriteReg(CFBP, 0x00000000)  returns 0x00 (0000ms, 2120ms total)
T1F0C 002:755 JLINK_SetBPEx(Addr = 0x20000000, Type = 0xFFFFFFF2)  returns 0x00000007 (0000ms, 2120ms total)
T1F0C 002:755 JLINK_Go() -- CPU_ReadMem(4 bytes @ 0xE0001000) (0020ms, 2140ms total)
T1F0C 002:775 JLINK_IsHalted()  returns FALSE (0005ms, 2145ms total)
T1F0C 002:786 JLINK_IsHalted()  returns FALSE (0005ms, 2145ms total)
T1F0C 002:792 JLINK_IsHalted()  returns FALSE (0009ms, 2149ms total)
T1F0C 002:802 JLINK_IsHalted()  returns FALSE (0006ms, 2146ms total)
T1F0C 002:809 JLINK_IsHalted()  returns FALSE (0005ms, 2145ms total)
T1F0C 002:815 JLINK_IsHalted()  returns FALSE (0009ms, 2149ms total)
T1F0C 002:831 JLINK_IsHalted()  returns FALSE (0006ms, 2146ms total)
T1F0C 002:838 JLINK_IsHalted()  returns FALSE (0008ms, 2148ms total)
T1F0C 002:848 JLINK_IsHalted()  returns FALSE (0005ms, 2145ms total)
T1F0C 002:854 JLINK_IsHalted()  returns FALSE (0008ms, 2148ms total)
T1F0C 002:864 JLINK_IsHalted()  returns FALSE (0005ms, 2145ms total)
T1F0C 002:870 JLINK_IsHalted() -- CPU_ReadMem(2 bytes @ 0x20000000)  returns TRUE (0016ms, 2156ms total)
T1F0C 002:886 JLINK_ReadReg(R15 (PC))  returns 0x20000000 (0000ms, 2140ms total)
T1F0C 002:886 JLINK_ClrBPEx(BPHandle = 0x00000007)  returns 0x00 (0000ms, 2140ms total)
T1F0C 002:886 JLINK_ReadReg(R0)  returns 0x00000000 (0000ms, 2140ms total)
T1F0C 002:887 JLINK_WriteReg(R0, 0x00000001)  returns 0x00 (0000ms, 2140ms total)
T1F0C 002:887 JLINK_WriteReg(R1, 0x00008000)  returns 0x00 (0000ms, 2140ms total)
T1F0C 002:887 JLINK_WriteReg(R2, 0x000000FF)  returns 0x00 (0000ms, 2140ms total)
T1F0C 002:887 JLINK_WriteReg(R3, 0x00000000)  returns 0x00 (0000ms, 2140ms total)
T1F0C 002:887 JLINK_WriteReg(R4, 0x00000000)  returns 0x00 (0000ms, 2140ms total)
T1F0C 002:887 JLINK_WriteReg(R5, 0x00000000)  returns 0x00 (0000ms, 2140ms total)
T1F0C 002:887 JLINK_WriteReg(R6, 0x00000000)  returns 0x00 (0000ms, 2140ms total)
T1F0C 002:887 JLINK_WriteReg(R7, 0x00000000)  returns 0x00 (0000ms, 2140ms total)
T1F0C 002:887 JLINK_WriteReg(R8, 0x00000000)  returns 0x00 (0000ms, 2140ms total)
T1F0C 002:887 JLINK_WriteReg(R9, 0x20000170)  returns 0x00 (0000ms, 2140ms total)
T1F0C 002:887 JLINK_WriteReg(R10, 0x00000000)  returns 0x00 (0000ms, 2140ms total)
T1F0C 002:887 JLINK_WriteReg(R11, 0x00000000)  returns 0x00 (0000ms, 2140ms total)
T1F0C 002:887 JLINK_WriteReg(R12, 0x00000000)  returns 0x00 (0000ms, 2140ms total)
T1F0C 002:887 JLINK_WriteReg(R13 (SP), 0x20001000)  returns 0x00 (0000ms, 2140ms total)
T1F0C 002:887 JLINK_WriteReg(R14, 0x20000001)  returns 0x00 (0000ms, 2140ms total)
T1F0C 002:887 JLINK_WriteReg(R15 (PC), 0x2000005A)  returns 0x00 (0000ms, 2140ms total)
T1F0C 002:887 JLINK_WriteReg(XPSR, 0x01000000)  returns 0x00 (0000ms, 2140ms total)
T1F0C 002:887 JLINK_WriteReg(MSP, 0x20001000)  returns 0x00 (0000ms, 2140ms total)
T1F0C 002:887 JLINK_WriteReg(PSP, 0x20001000)  returns 0x00 (0000ms, 2140ms total)
T1F0C 002:887 JLINK_WriteReg(CFBP, 0x00000000)  returns 0x00 (0000ms, 2140ms total)
T1F0C 002:887 JLINK_SetBPEx(Addr = 0x20000000, Type = 0xFFFFFFF2)  returns 0x00000008 (0000ms, 2140ms total)
T1F0C 002:887 JLINK_Go() -- CPU_ReadMem(4 bytes @ 0xE0001000) (0016ms, 2156ms total)
T1F0C 002:903 JLINK_IsHalted() -- CPU_ReadMem(2 bytes @ 0x20000000)  returns TRUE (0021ms, 2177ms total)
T1F0C 002:924 JLINK_ReadReg(R15 (PC))  returns 0x20000000 (0000ms, 2156ms total)
T1F0C 002:924 JLINK_ClrBPEx(BPHandle = 0x00000008)  returns 0x00 (0000ms, 2156ms total)
T1F0C 002:924 JLINK_ReadReg(R0)  returns 0x00000000 (0000ms, 2156ms total)
T1F0C 002:985 JLINK_WriteMem(0x20000000, 0x0178 Bytes, ...) - Data: 00 BE 0A E0 0D 78 2D 06 68 40 08 24 40 00 00 D3 ... -- CPU_WriteMem(376 bytes @ 0x20000000)  returns 0x178 (0010ms, 2166ms total)
T1F0C 002:995 JLINK_WriteReg(R0, 0x00000000)  returns 0x00 (0001ms, 2167ms total)
T1F0C 002:996 JLINK_WriteReg(R1, 0x01F78A40)  returns 0x00 (0000ms, 2167ms total)
T1F0C 002:996 JLINK_WriteReg(R2, 0x00000002)  returns 0x00 (0000ms, 2167ms total)
T1F0C 002:996 JLINK_WriteReg(R3, 0x00000000)  returns 0x00 (0000ms, 2167ms total)
T1F0C 002:996 JLINK_WriteReg(R4, 0x00000000)  returns 0x00 (0000ms, 2167ms total)
T1F0C 002:996 JLINK_WriteReg(R5, 0x00000000)  returns 0x00 (0000ms, 2167ms total)
T1F0C 002:996 JLINK_WriteReg(R6, 0x00000000)  returns 0x00 (0000ms, 2167ms total)
T1F0C 002:996 JLINK_WriteReg(R7, 0x00000000)  returns 0x00 (0000ms, 2167ms total)
T1F0C 002:996 JLINK_WriteReg(R8, 0x00000000)  returns 0x00 (0000ms, 2167ms total)
T1F0C 002:996 JLINK_WriteReg(R9, 0x20000170)  returns 0x00 (0000ms, 2167ms total)
T1F0C 002:996 JLINK_WriteReg(R10, 0x00000000)  returns 0x00 (0000ms, 2167ms total)
T1F0C 002:996 JLINK_WriteReg(R11, 0x00000000)  returns 0x00 (0000ms, 2167ms total)
T1F0C 002:996 JLINK_WriteReg(R12, 0x00000000)  returns 0x00 (0000ms, 2167ms total)
T1F0C 002:996 JLINK_WriteReg(R13 (SP), 0x20001000)  returns 0x00 (0000ms, 2167ms total)
T1F0C 002:996 JLINK_WriteReg(R14, 0x20000001)  returns 0x00 (0000ms, 2167ms total)
T1F0C 002:996 JLINK_WriteReg(R15 (PC), 0x2000003C)  returns 0x00 (0000ms, 2167ms total)
T1F0C 002:996 JLINK_WriteReg(XPSR, 0x01000000)  returns 0x00 (0000ms, 2167ms total)
T1F0C 002:996 JLINK_WriteReg(MSP, 0x20001000)  returns 0x00 (0000ms, 2167ms total)
T1F0C 002:996 JLINK_WriteReg(PSP, 0x20001000)  returns 0x00 (0000ms, 2167ms total)
T1F0C 002:996 JLINK_WriteReg(CFBP, 0x00000000)  returns 0x00 (0000ms, 2167ms total)
T1F0C 002:996 JLINK_SetBPEx(Addr = 0x20000000, Type = 0xFFFFFFF2) -- CPU_ReadMem(2 bytes @ 0x20000000)  returns 0x00000009 (0006ms, 2173ms total)
T1F0C 003:002 JLINK_Go() -- CPU_WriteMem(2 bytes @ 0x20000000) -- CPU_ReadMem(4 bytes @ 0xE0001000) (0022ms, 2195ms total)
T1F0C 003:030 JLINK_IsHalted() -- CPU_ReadMem(2 bytes @ 0x20000000)  returns TRUE (0022ms, 2217ms total)
T1F0C 003:052 JLINK_ReadReg(R15 (PC))  returns 0x20000000 (0000ms, 2195ms total)
T1F0C 003:052 JLINK_ClrBPEx(BPHandle = 0x00000009)  returns 0x00 (0000ms, 2195ms total)
T1F0C 003:052 JLINK_ReadReg(R0)  returns 0x00000000 (0000ms, 2195ms total)
T1F0C 003:054 JLINK_WriteMem(0x200001A0, 0x0400 Bytes, ...) - Data: 00 80 00 04 09 01 00 00 4B 01 00 00 4D 01 00 00 ... -- CPU_WriteMem(1024 bytes @ 0x200001A0)  returns 0x400 (0019ms, 2214ms total)
T1F0C 003:080 JLINK_WriteReg(R0, 0x00000000)  returns 0x00 (0000ms, 2214ms total)
T1F0C 003:080 JLINK_WriteReg(R1, 0x00000400)  returns 0x00 (0000ms, 2214ms total)
T1F0C 003:080 JLINK_WriteReg(R2, 0x200001A0)  returns 0x00 (0000ms, 2214ms total)
T1F0C 003:080 JLINK_WriteReg(R3, 0x00000000)  returns 0x00 (0000ms, 2214ms total)
T1F0C 003:080 JLINK_WriteReg(R4, 0x00000000)  returns 0x00 (0000ms, 2214ms total)
T1F0C 003:080 JLINK_WriteReg(R5, 0x00000000)  returns 0x00 (0000ms, 2214ms total)
T1F0C 003:080 JLINK_WriteReg(R6, 0x00000000)  returns 0x00 (0000ms, 2214ms total)
T1F0C 003:080 JLINK_WriteReg(R7, 0x00000000)  returns 0x00 (0000ms, 2214ms total)
T1F0C 003:080 JLINK_WriteReg(R8, 0x00000000)  returns 0x00 (0000ms, 2214ms total)
T1F0C 003:080 JLINK_WriteReg(R9, 0x20000170)  returns 0x00 (0000ms, 2214ms total)
T1F0C 003:080 JLINK_WriteReg(R10, 0x00000000)  returns 0x00 (0000ms, 2214ms total)
T1F0C 003:080 JLINK_WriteReg(R11, 0x00000000)  returns 0x00 (0000ms, 2214ms total)
T1F0C 003:080 JLINK_WriteReg(R12, 0x00000000)  returns 0x00 (0000ms, 2214ms total)
T1F0C 003:080 JLINK_WriteReg(R13 (SP), 0x20001000)  returns 0x00 (0000ms, 2214ms total)
T1F0C 003:080 JLINK_WriteReg(R14, 0x20000001)  returns 0x00 (0000ms, 2214ms total)
T1F0C 003:080 JLINK_WriteReg(R15 (PC), 0x200000E8)  returns 0x00 (0000ms, 2214ms total)
T1F0C 003:080 JLINK_WriteReg(XPSR, 0x01000000)  returns 0x00 (0000ms, 2214ms total)
T1F0C 003:081 JLINK_WriteReg(MSP, 0x20001000)  returns 0x00 (0000ms, 2215ms total)
T1F0C 003:081 JLINK_WriteReg(PSP, 0x20001000)  returns 0x00 (0000ms, 2215ms total)
T1F0C 003:081 JLINK_WriteReg(CFBP, 0x00000000)  returns 0x00 (0000ms, 2215ms total)
T1F0C 003:081 JLINK_SetBPEx(Addr = 0x20000000, Type = 0xFFFFFFF2)  returns 0x0000000A (0000ms, 2215ms total)
T1F0C 003:081 JLINK_Go() -- CPU_ReadMem(4 bytes @ 0xE0001000) (0018ms, 2233ms total)
T1F0C 003:099 JLINK_IsHalted() -- CPU_ReadMem(2 bytes @ 0x20000000)  returns TRUE (0021ms, 2254ms total)
T1F0C 003:120 JLINK_ReadReg(R15 (PC))  returns 0x20000000 (0000ms, 2233ms total)
T1F0C 003:120 JLINK_ClrBPEx(BPHandle = 0x0000000A)  returns 0x00 (0000ms, 2233ms total)
T1F0C 003:120 JLINK_ReadReg(R0)  returns 0x00000000 (0000ms, 2233ms total)
T1F0C 003:121 JLINK_WriteMem(0x200001A0, 0x0400 Bytes, ...) - Data: 33 42 03 DC 52 42 00 F0 2A F8 10 BD 90 40 10 BD ... -- CPU_WriteMem(1024 bytes @ 0x200001A0)  returns 0x400 (0017ms, 2250ms total)
T1F0C 003:138 JLINK_WriteReg(R0, 0x00000400)  returns 0x00 (0000ms, 2250ms total)
T1F0C 003:138 JLINK_WriteReg(R1, 0x00000400)  returns 0x00 (0000ms, 2250ms total)
T1F0C 003:138 JLINK_WriteReg(R2, 0x200001A0)  returns 0x00 (0000ms, 2250ms total)
T1F0C 003:138 JLINK_WriteReg(R3, 0x00000000)  returns 0x00 (0000ms, 2250ms total)
T1F0C 003:138 JLINK_WriteReg(R4, 0x00000000)  returns 0x00 (0000ms, 2250ms total)
T1F0C 003:138 JLINK_WriteReg(R5, 0x00000000)  returns 0x00 (0000ms, 2250ms total)
T1F0C 003:138 JLINK_WriteReg(R6, 0x00000000)  returns 0x00 (0000ms, 2250ms total)
T1F0C 003:138 JLINK_WriteReg(R7, 0x00000000)  returns 0x00 (0000ms, 2250ms total)
T1F0C 003:139 JLINK_WriteReg(R8, 0x00000000)  returns 0x00 (0001ms, 2251ms total)
T1F0C 003:140 JLINK_WriteReg(R9, 0x20000170)  returns 0x00 (0000ms, 2251ms total)
T1F0C 003:140 JLINK_WriteReg(R10, 0x00000000)  returns 0x00 (0000ms, 2251ms total)
T1F0C 003:140 JLINK_WriteReg(R11, 0x00000000)  returns 0x00 (0000ms, 2251ms total)
T1F0C 003:140 JLINK_WriteReg(R12, 0x00000000)  returns 0x00 (0000ms, 2251ms total)
T1F0C 003:140 JLINK_WriteReg(R13 (SP), 0x20001000)  returns 0x00 (0000ms, 2251ms total)
T1F0C 003:140 JLINK_WriteReg(R14, 0x20000001)  returns 0x00 (0000ms, 2251ms total)
T1F0C 003:140 JLINK_WriteReg(R15 (PC), 0x200000E8)  returns 0x00 (0000ms, 2251ms total)
T1F0C 003:140 JLINK_WriteReg(XPSR, 0x01000000)  returns 0x00 (0000ms, 2251ms total)
T1F0C 003:140 JLINK_WriteReg(MSP, 0x20001000)  returns 0x00 (0000ms, 2251ms total)
T1F0C 003:140 JLINK_WriteReg(PSP, 0x20001000)  returns 0x00 (0000ms, 2251ms total)
T1F0C 003:140 JLINK_WriteReg(CFBP, 0x00000000)  returns 0x00 (0000ms, 2251ms total)
T1F0C 003:140 JLINK_SetBPEx(Addr = 0x20000000, Type = 0xFFFFFFF2)  returns 0x0000000B (0000ms, 2251ms total)
T1F0C 003:140 JLINK_Go() -- CPU_ReadMem(4 bytes @ 0xE0001000) (0021ms, 2272ms total)
T1F0C 003:162 JLINK_IsHalted() -- CPU_ReadMem(2 bytes @ 0x20000000)  returns TRUE (0022ms, 2295ms total)
T1F0C 003:184 JLINK_ReadReg(R15 (PC))  returns 0x20000000 (0000ms, 2273ms total)
T1F0C 003:184 JLINK_ClrBPEx(BPHandle = 0x0000000B)  returns 0x00 (0000ms, 2273ms total)
T1F0C 003:184 JLINK_ReadReg(R0)  returns 0x00000000 (0000ms, 2273ms total)
T1F0C 003:185 JLINK_WriteMem(0x200001A0, 0x0400 Bytes, ...) - Data: 54 48 D8 38 00 68 10 B9 00 F0 B4 F8 08 E0 51 48 ... -- CPU_WriteMem(1024 bytes @ 0x200001A0)  returns 0x400 (0019ms, 2292ms total)
T1F0C 003:204 JLINK_WriteReg(R0, 0x00000800)  returns 0x00 (0000ms, 2292ms total)
T1F0C 003:204 JLINK_WriteReg(R1, 0x00000400)  returns 0x00 (0000ms, 2292ms total)
T1F0C 003:204 JLINK_WriteReg(R2, 0x200001A0)  returns 0x00 (0000ms, 2292ms total)
T1F0C 003:204 JLINK_WriteReg(R3, 0x00000000)  returns 0x00 (0000ms, 2292ms total)
T1F0C 003:204 JLINK_WriteReg(R4, 0x00000000)  returns 0x00 (0000ms, 2292ms total)
T1F0C 003:204 JLINK_WriteReg(R5, 0x00000000)  returns 0x00 (0000ms, 2292ms total)
T1F0C 003:204 JLINK_WriteReg(R6, 0x00000000)  returns 0x00 (0000ms, 2292ms total)
T1F0C 003:204 JLINK_WriteReg(R7, 0x00000000)  returns 0x00 (0000ms, 2292ms total)
T1F0C 003:204 JLINK_WriteReg(R8, 0x00000000)  returns 0x00 (0001ms, 2293ms total)
T1F0C 003:205 JLINK_WriteReg(R9, 0x20000170)  returns 0x00 (0000ms, 2293ms total)
T1F0C 003:205 JLINK_WriteReg(R10, 0x00000000)  returns 0x00 (0000ms, 2293ms total)
T1F0C 003:205 JLINK_WriteReg(R11, 0x00000000)  returns 0x00 (0000ms, 2293ms total)
T1F0C 003:205 JLINK_WriteReg(R12, 0x00000000)  returns 0x00 (0000ms, 2293ms total)
T1F0C 003:205 JLINK_WriteReg(R13 (SP), 0x20001000)  returns 0x00 (0000ms, 2293ms total)
T1F0C 003:205 JLINK_WriteReg(R14, 0x20000001)  returns 0x00 (0000ms, 2293ms total)
T1F0C 003:205 JLINK_WriteReg(R15 (PC), 0x200000E8)  returns 0x00 (0000ms, 2293ms total)
T1F0C 003:205 JLINK_WriteReg(XPSR, 0x01000000)  returns 0x00 (0000ms, 2293ms total)
T1F0C 003:205 JLINK_WriteReg(MSP, 0x20001000)  returns 0x00 (0000ms, 2293ms total)
T1F0C 003:205 JLINK_WriteReg(PSP, 0x20001000)  returns 0x00 (0000ms, 2293ms total)
T1F0C 003:205 JLINK_WriteReg(CFBP, 0x00000000)  returns 0x00 (0000ms, 2293ms total)
T1F0C 003:205 JLINK_SetBPEx(Addr = 0x20000000, Type = 0xFFFFFFF2)  returns 0x0000000C (0000ms, 2293ms total)
T1F0C 003:205 JLINK_Go() -- CPU_ReadMem(4 bytes @ 0xE0001000) (0019ms, 2312ms total)
T1F0C 003:224 JLINK_IsHalted() -- CPU_ReadMem(2 bytes @ 0x20000000)  returns TRUE (0023ms, 2335ms total)
T1F0C 003:248 JLINK_ReadReg(R15 (PC))  returns 0x20000000 (0000ms, 2312ms total)
T1F0C 003:248 JLINK_ClrBPEx(BPHandle = 0x0000000C)  returns 0x00 (0000ms, 2312ms total)
T1F0C 003:248 JLINK_ReadReg(R0)  returns 0x00000000 (0000ms, 2312ms total)
T1F0C 003:249 JLINK_WriteMem(0x200001A0, 0x0400 Bytes, ...) - Data: 27 48 50 F8 27 40 04 B9 45 E0 20 7B 45 11 20 7B ... -- CPU_WriteMem(1024 bytes @ 0x200001A0)  returns 0x400 (0018ms, 2330ms total)
T1F0C 003:267 JLINK_WriteReg(R0, 0x00000C00)  returns 0x00 (0000ms, 2330ms total)
T1F0C 003:267 JLINK_WriteReg(R1, 0x00000400)  returns 0x00 (0000ms, 2330ms total)
T1F0C 003:267 JLINK_WriteReg(R2, 0x200001A0)  returns 0x00 (0000ms, 2330ms total)
T1F0C 003:267 JLINK_WriteReg(R3, 0x00000000)  returns 0x00 (0000ms, 2330ms total)
T1F0C 003:267 JLINK_WriteReg(R4, 0x00000000)  returns 0x00 (0000ms, 2330ms total)
T1F0C 003:267 JLINK_WriteReg(R5, 0x00000000)  returns 0x00 (0000ms, 2330ms total)
T1F0C 003:267 JLINK_WriteReg(R6, 0x00000000)  returns 0x00 (0000ms, 2330ms total)
T1F0C 003:267 JLINK_WriteReg(R7, 0x00000000)  returns 0x00 (0000ms, 2330ms total)
T1F0C 003:267 JLINK_WriteReg(R8, 0x00000000)  returns 0x00 (0000ms, 2330ms total)
T1F0C 003:267 JLINK_WriteReg(R9, 0x20000170)  returns 0x00 (0000ms, 2330ms total)
T1F0C 003:267 JLINK_WriteReg(R10, 0x00000000)  returns 0x00 (0000ms, 2330ms total)
T1F0C 003:267 JLINK_WriteReg(R11, 0x00000000)  returns 0x00 (0000ms, 2330ms total)
T1F0C 003:267 JLINK_WriteReg(R12, 0x00000000)  returns 0x00 (0000ms, 2330ms total)
T1F0C 003:267 JLINK_WriteReg(R13 (SP), 0x20001000)  returns 0x00 (0000ms, 2330ms total)
T1F0C 003:267 JLINK_WriteReg(R14, 0x20000001)  returns 0x00 (0000ms, 2330ms total)
T1F0C 003:267 JLINK_WriteReg(R15 (PC), 0x200000E8)  returns 0x00 (0000ms, 2330ms total)
T1F0C 003:267 JLINK_WriteReg(XPSR, 0x01000000)  returns 0x00 (0000ms, 2330ms total)
T1F0C 003:267 JLINK_WriteReg(MSP, 0x20001000)  returns 0x00 (0000ms, 2330ms total)
T1F0C 003:267 JLINK_WriteReg(PSP, 0x20001000)  returns 0x00 (0000ms, 2330ms total)
T1F0C 003:267 JLINK_WriteReg(CFBP, 0x00000000)  returns 0x00 (0000ms, 2330ms total)
T1F0C 003:267 JLINK_SetBPEx(Addr = 0x20000000, Type = 0xFFFFFFF2)  returns 0x0000000D (0000ms, 2330ms total)
T1F0C 003:267 JLINK_Go() -- CPU_ReadMem(4 bytes @ 0xE0001000) (0021ms, 2351ms total)
T1F0C 003:288 JLINK_IsHalted() -- CPU_ReadMem(2 bytes @ 0x20000000)  returns TRUE (0018ms, 2369ms total)
T1F0C 003:306 JLINK_ReadReg(R15 (PC))  returns 0x20000000 (0000ms, 2351ms total)
T1F0C 003:306 JLINK_ClrBPEx(BPHandle = 0x0000000D)  returns 0x00 (0000ms, 2351ms total)
T1F0C 003:306 JLINK_ReadReg(R0)  returns 0x00000000 (0000ms, 2351ms total)
T1F0C 003:308 JLINK_WriteMem(0x200001A0, 0x0400 Bytes, ...) - Data: 6D 1C 28 78 04 1E 7F F4 F5 AE 07 98 15 B0 BD E8 ... -- CPU_WriteMem(1024 bytes @ 0x200001A0)  returns 0x400 (0017ms, 2368ms total)
T1F0C 003:325 JLINK_WriteReg(R0, 0x00001000)  returns 0x00 (0000ms, 2368ms total)
T1F0C 003:325 JLINK_WriteReg(R1, 0x00000400)  returns 0x00 (0000ms, 2368ms total)
T1F0C 003:325 JLINK_WriteReg(R2, 0x200001A0)  returns 0x00 (0000ms, 2368ms total)
T1F0C 003:325 JLINK_WriteReg(R3, 0x00000000)  returns 0x00 (0000ms, 2368ms total)
T1F0C 003:325 JLINK_WriteReg(R4, 0x00000000)  returns 0x00 (0000ms, 2368ms total)
T1F0C 003:325 JLINK_WriteReg(R5, 0x00000000)  returns 0x00 (0000ms, 2368ms total)
T1F0C 003:325 JLINK_WriteReg(R6, 0x00000000)  returns 0x00 (0000ms, 2368ms total)
T1F0C 003:325 JLINK_WriteReg(R7, 0x00000000)  returns 0x00 (0000ms, 2368ms total)
T1F0C 003:325 JLINK_WriteReg(R8, 0x00000000)  returns 0x00 (0000ms, 2368ms total)
T1F0C 003:325 JLINK_WriteReg(R9, 0x20000170)  returns 0x00 (0000ms, 2368ms total)
T1F0C 003:325 JLINK_WriteReg(R10, 0x00000000)  returns 0x00 (0000ms, 2368ms total)
T1F0C 003:325 JLINK_WriteReg(R11, 0x00000000)  returns 0x00 (0001ms, 2369ms total)
T1F0C 003:326 JLINK_WriteReg(R12, 0x00000000)  returns 0x00 (0000ms, 2369ms total)
T1F0C 003:326 JLINK_WriteReg(R13 (SP), 0x20001000)  returns 0x00 (0000ms, 2369ms total)
T1F0C 003:326 JLINK_WriteReg(R14, 0x20000001)  returns 0x00 (0000ms, 2369ms total)
T1F0C 003:326 JLINK_WriteReg(R15 (PC), 0x200000E8)  returns 0x00 (0000ms, 2369ms total)
T1F0C 003:326 JLINK_WriteReg(XPSR, 0x01000000)  returns 0x00 (0000ms, 2369ms total)
T1F0C 003:326 JLINK_WriteReg(MSP, 0x20001000)  returns 0x00 (0000ms, 2369ms total)
T1F0C 003:326 JLINK_WriteReg(PSP, 0x20001000)  returns 0x00 (0000ms, 2369ms total)
T1F0C 003:326 JLINK_WriteReg(CFBP, 0x00000000)  returns 0x00 (0000ms, 2369ms total)
T1F0C 003:326 JLINK_SetBPEx(Addr = 0x20000000, Type = 0xFFFFFFF2)  returns 0x0000000E (0000ms, 2369ms total)
T1F0C 003:326 JLINK_Go() -- CPU_ReadMem(4 bytes @ 0xE0001000) (0017ms, 2386ms total)
T1F0C 003:343 JLINK_IsHalted() -- CPU_ReadMem(2 bytes @ 0x20000000)  returns TRUE (0025ms, 2411ms total)
T1F0C 003:368 JLINK_ReadReg(R15 (PC))  returns 0x20000000 (0000ms, 2386ms total)
T1F0C 003:368 JLINK_ClrBPEx(BPHandle = 0x0000000E)  returns 0x00 (0000ms, 2386ms total)
T1F0C 003:368 JLINK_ReadReg(R0)  returns 0x00000000 (0000ms, 2386ms total)
T1F0C 003:369 JLINK_WriteMem(0x200001A0, 0x0400 Bytes, ...) - Data: 73 6C 5F 66 6C 65 78 63 6F 6D 6D 2E 63 00 00 00 ... -- CPU_WriteMem(1024 bytes @ 0x200001A0)  returns 0x400 (0017ms, 2403ms total)
T1F0C 003:386 JLINK_WriteReg(R0, 0x00001400)  returns 0x00 (0000ms, 2403ms total)
T1F0C 003:386 JLINK_WriteReg(R1, 0x00000400)  returns 0x00 (0000ms, 2403ms total)
T1F0C 003:386 JLINK_WriteReg(R2, 0x200001A0)  returns 0x00 (0000ms, 2403ms total)
T1F0C 003:386 JLINK_WriteReg(R3, 0x00000000)  returns 0x00 (0000ms, 2403ms total)
T1F0C 003:386 JLINK_WriteReg(R4, 0x00000000)  returns 0x00 (0000ms, 2403ms total)
T1F0C 003:386 JLINK_WriteReg(R5, 0x00000000)  returns 0x00 (0000ms, 2403ms total)
T1F0C 003:386 JLINK_WriteReg(R6, 0x00000000)  returns 0x00 (0000ms, 2403ms total)
T1F0C 003:386 JLINK_WriteReg(R7, 0x00000000)  returns 0x00 (0000ms, 2403ms total)
T1F0C 003:386 JLINK_WriteReg(R8, 0x00000000)  returns 0x00 (0000ms, 2403ms total)
T1F0C 003:386 JLINK_WriteReg(R9, 0x20000170)  returns 0x00 (0000ms, 2403ms total)
T1F0C 003:386 JLINK_WriteReg(R10, 0x00000000)  returns 0x00 (0001ms, 2404ms total)
T1F0C 003:387 JLINK_WriteReg(R11, 0x00000000)  returns 0x00 (0000ms, 2404ms total)
T1F0C 003:390 JLINK_WriteReg(R12, 0x00000000)  returns 0x00 (0000ms, 2407ms total)
T1F0C 003:390 JLINK_WriteReg(R13 (SP), 0x20001000)  returns 0x00 (0000ms, 2407ms total)
T1F0C 003:390 JLINK_WriteReg(R14, 0x20000001)  returns 0x00 (0000ms, 2407ms total)
T1F0C 003:390 JLINK_WriteReg(R15 (PC), 0x200000E8)  returns 0x00 (0000ms, 2407ms total)
T1F0C 003:390 JLINK_WriteReg(XPSR, 0x01000000)  returns 0x00 (0000ms, 2407ms total)
T1F0C 003:390 JLINK_WriteReg(MSP, 0x20001000)  returns 0x00 (0000ms, 2407ms total)
T1F0C 003:390 JLINK_WriteReg(PSP, 0x20001000)  returns 0x00 (0000ms, 2407ms total)
T1F0C 003:390 JLINK_WriteReg(CFBP, 0x00000000)  returns 0x00 (0000ms, 2407ms total)
T1F0C 003:390 JLINK_SetBPEx(Addr = 0x20000000, Type = 0xFFFFFFF2)  returns 0x0000000F (0000ms, 2407ms total)
T1F0C 003:390 JLINK_Go() -- CPU_ReadMem(4 bytes @ 0xE0001000) (0015ms, 2422ms total)
T1F0C 003:405 JLINK_IsHalted()  returns FALSE (0005ms, 2427ms total)
T1F0C 003:434 JLINK_IsHalted() -- CPU_ReadMem(2 bytes @ 0x20000000)  returns TRUE (0020ms, 2442ms total)
T1F0C 003:454 JLINK_ReadReg(R15 (PC))  returns 0x20000000 (0000ms, 2422ms total)
T1F0C 003:454 JLINK_ClrBPEx(BPHandle = 0x0000000F)  returns 0x00 (0000ms, 2422ms total)
T1F0C 003:455 JLINK_ReadReg(R0)  returns 0x00000000 (0002ms, 2424ms total)
T1F0C 003:459 JLINK_WriteMem(0x200001A0, 0x0400 Bytes, ...) - Data: 72 73 5C 66 73 6C 5F 69 32 63 2E 63 00 00 00 00 ... -- CPU_WriteMem(1024 bytes @ 0x200001A0)  returns 0x400 (0020ms, 2444ms total)
T1F0C 003:480 JLINK_WriteReg(R0, 0x00001800)  returns 0x00 (0000ms, 2444ms total)
T1F0C 003:480 JLINK_WriteReg(R1, 0x00000400)  returns 0x00 (0000ms, 2444ms total)
T1F0C 003:480 JLINK_WriteReg(R2, 0x200001A0)  returns 0x00 (0000ms, 2444ms total)
T1F0C 003:480 JLINK_WriteReg(R3, 0x00000000)  returns 0x00 (0001ms, 2445ms total)
T1F0C 003:481 JLINK_WriteReg(R4, 0x00000000)  returns 0x00 (0000ms, 2445ms total)
T1F0C 003:481 JLINK_WriteReg(R5, 0x00000000)  returns 0x00 (0000ms, 2445ms total)
T1F0C 003:481 JLINK_WriteReg(R6, 0x00000000)  returns 0x00 (0000ms, 2445ms total)
T1F0C 003:481 JLINK_WriteReg(R7, 0x00000000)  returns 0x00 (0000ms, 2445ms total)
T1F0C 003:481 JLINK_WriteReg(R8, 0x00000000)  returns 0x00 (0000ms, 2445ms total)
T1F0C 003:481 JLINK_WriteReg(R9, 0x20000170)  returns 0x00 (0000ms, 2445ms total)
T1F0C 003:481 JLINK_WriteReg(R10, 0x00000000)  returns 0x00 (0000ms, 2445ms total)
T1F0C 003:481 JLINK_WriteReg(R11, 0x00000000)  returns 0x00 (0000ms, 2445ms total)
T1F0C 003:481 JLINK_WriteReg(R12, 0x00000000)  returns 0x00 (0000ms, 2445ms total)
T1F0C 003:481 JLINK_WriteReg(R13 (SP), 0x20001000)  returns 0x00 (0000ms, 2445ms total)
T1F0C 003:481 JLINK_WriteReg(R14, 0x20000001)  returns 0x00 (0000ms, 2445ms total)
T1F0C 003:481 JLINK_WriteReg(R15 (PC), 0x200000E8)  returns 0x00 (0000ms, 2445ms total)
T1F0C 003:481 JLINK_WriteReg(XPSR, 0x01000000)  returns 0x00 (0000ms, 2445ms total)
T1F0C 003:481 JLINK_WriteReg(MSP, 0x20001000)  returns 0x00 (0000ms, 2445ms total)
T1F0C 003:481 JLINK_WriteReg(PSP, 0x20001000)  returns 0x00 (0000ms, 2445ms total)
T1F0C 003:481 JLINK_WriteReg(CFBP, 0x00000000)  returns 0x00 (0000ms, 2445ms total)
T1F0C 003:482 JLINK_SetBPEx(Addr = 0x20000000, Type = 0xFFFFFFF2)  returns 0x00000010 (0000ms, 2446ms total)
T1F0C 003:482 JLINK_Go() -- CPU_ReadMem(4 bytes @ 0xE0001000) (0018ms, 2464ms total)
T1F0C 003:500 JLINK_IsHalted() -- CPU_ReadMem(2 bytes @ 0x20000000)  returns TRUE (0018ms, 2482ms total)
T1F0C 003:518 JLINK_ReadReg(R15 (PC))  returns 0x20000000 (0000ms, 2464ms total)
T1F0C 003:518 JLINK_ClrBPEx(BPHandle = 0x00000010)  returns 0x00 (0000ms, 2464ms total)
T1F0C 003:518 JLINK_ReadReg(R0)  returns 0x00000000 (0000ms, 2464ms total)
T1F0C 003:519 JLINK_WriteMem(0x200001A0, 0x0400 Bytes, ...) - Data: 08 43 28 60 06 F0 11 00 18 B1 01 20 A0 40 A8 60 ... -- CPU_WriteMem(1024 bytes @ 0x200001A0)  returns 0x400 (0018ms, 2482ms total)
T1F0C 003:538 JLINK_WriteReg(R0, 0x00001C00)  returns 0x00 (0000ms, 2482ms total)
T1F0C 003:538 JLINK_WriteReg(R1, 0x00000400)  returns 0x00 (0000ms, 2482ms total)
T1F0C 003:538 JLINK_WriteReg(R2, 0x200001A0)  returns 0x00 (0000ms, 2482ms total)
T1F0C 003:538 JLINK_WriteReg(R3, 0x00000000)  returns 0x00 (0000ms, 2482ms total)
T1F0C 003:538 JLINK_WriteReg(R4, 0x00000000)  returns 0x00 (0000ms, 2482ms total)
T1F0C 003:538 JLINK_WriteReg(R5, 0x00000000)  returns 0x00 (0000ms, 2482ms total)
T1F0C 003:538 JLINK_WriteReg(R6, 0x00000000)  returns 0x00 (0000ms, 2482ms total)
T1F0C 003:538 JLINK_WriteReg(R7, 0x00000000)  returns 0x00 (0000ms, 2482ms total)
T1F0C 003:538 JLINK_WriteReg(R8, 0x00000000)  returns 0x00 (0000ms, 2482ms total)
T1F0C 003:538 JLINK_WriteReg(R9, 0x20000170)  returns 0x00 (0000ms, 2482ms total)
T1F0C 003:538 JLINK_WriteReg(R10, 0x00000000)  returns 0x00 (0000ms, 2482ms total)
T1F0C 003:538 JLINK_WriteReg(R11, 0x00000000)  returns 0x00 (0000ms, 2482ms total)
T1F0C 003:538 JLINK_WriteReg(R12, 0x00000000)  returns 0x00 (0000ms, 2482ms total)
T1F0C 003:538 JLINK_WriteReg(R13 (SP), 0x20001000)  returns 0x00 (0000ms, 2482ms total)
T1F0C 003:538 JLINK_WriteReg(R14, 0x20000001)  returns 0x00 (0000ms, 2482ms total)
T1F0C 003:538 JLINK_WriteReg(R15 (PC), 0x200000E8)  returns 0x00 (0000ms, 2482ms total)
T1F0C 003:538 JLINK_WriteReg(XPSR, 0x01000000)  returns 0x00 (0000ms, 2482ms total)
T1F0C 003:538 JLINK_WriteReg(MSP, 0x20001000)  returns 0x00 (0000ms, 2482ms total)
T1F0C 003:538 JLINK_WriteReg(PSP, 0x20001000)  returns 0x00 (0000ms, 2482ms total)
T1F0C 003:538 JLINK_WriteReg(CFBP, 0x00000000)  returns 0x00 (0000ms, 2482ms total)
T1F0C 003:538 JLINK_SetBPEx(Addr = 0x20000000, Type = 0xFFFFFFF2)  returns 0x00000011 (0000ms, 2482ms total)
T1F0C 003:538 JLINK_Go() -- CPU_ReadMem(4 bytes @ 0xE0001000) (0017ms, 2499ms total)
T1F0C 003:555 JLINK_IsHalted() -- CPU_ReadMem(2 bytes @ 0x20000000)  returns TRUE (0020ms, 2519ms total)
T1F0C 003:575 JLINK_ReadReg(R15 (PC))  returns 0x20000000 (0000ms, 2499ms total)
